Freq.	V(feedb)/V(inv)
1.00000000000000e+002	(1.18095910121793e+002dB,5.09815498759121e+000°)
1.00115195553817e+002	(1.18076338248362e+002dB,5.09253123718982e+000°)
1.00230523807790e+002	(1.18056765402925e+002dB,5.08691316662518e+000°)
1.00345984914784e+002	(1.18037191597289e+002dB,5.08130077795331e+000°)
1.00461579027840e+002	(1.18017616833609e+002dB,5.07569406906579e+000°)
1.00577306300174e+002	(1.17998041101945e+002dB,5.07009302615323e+000°)
1.00693166885180e+002	(1.17978464413267e+002dB,5.06449765257803e+000°)
1.00809160936430e+002	(1.17958886764293e+002dB,5.05890793896960e+000°)
1.00925288607668e+002	(1.17939308175782e+002dB,5.05332389327078e+000°)
1.01041550052821e+002	(1.17919728626254e+002dB,5.04774549660704e+000°)
1.01157945425990e+002	(1.17900148116277e+002dB,5.04217274671798e+000°)
1.01274474881453e+002	(1.17880566673663e+002dB,5.03660565494472e+000°)
1.01391138573668e+002	(1.17860984277280e+002dB,5.03104419909523e+000°)
1.01507936657269e+002	(1.17841400934870e+002dB,5.02548838436281e+000°)
1.01624869287070e+002	(1.17821816660060e+002dB,5.01993820881203e+000°)
1.01741936618061e+002	(1.17802231432918e+002dB,5.01439365962606e+000°)
1.01859138805412e+002	(1.17782645277020e+002dB,5.00885474490296e+000°)
1.01976476004472e+002	(1.17763058186619e+002dB,5.00332144891850e+000°)
1.02093948370768e+002	(1.17743470150502e+002dB,4.99779377101200e+000°)
1.02211556060007e+002	(1.17723881198347e+002dB,4.99227171435645e+000°)
1.02329299228076e+002	(1.17704291305905e+002dB,4.98675526860368e+000°)
1.02447178031038e+002	(1.17684700491452e+002dB,4.98124442727774e+000°)
1.02565192625141e+002	(1.17665108742685e+002dB,4.97573919176679e+000°)
1.02683343166809e+002	(1.17645516076434e+002dB,4.97023955422906e+000°)
1.02801629812648e+002	(1.17625922483674e+002dB,4.96474551620888e+000°)
1.02920052719443e+002	(1.17606327973641e+002dB,4.95925706301197e+000°)
1.03038612044162e+002	(1.17586732547106e+002dB,4.95377420704081e+000°)
1.03157307943951e+002	(1.17567136203268e+002dB,4.94829692850277e+000°)
1.03276140576140e+002	(1.17547538942823e+002dB,4.94282523019116e+000°)
1.03395110098237e+002	(1.17527940776983e+002dB,4.93735911102344e+000°)
1.03514216667935e+002	(1.17508341689724e+002dB,4.93189855825898e+000°)
1.03633460443104e+002	(1.17488741703606e+002dB,4.92644357611062e+000°)
1.03752841581801e+002	(1.17469140812729e+002dB,4.92099415925020e+000°)
1.03872360242262e+002	(1.17449539006752e+002dB,4.91555029696739e+000°)
1.03992016582906e+002	(1.17429936315190e+002dB,4.91011199943078e+000°)
1.04111810762334e+002	(1.17410332709496e+002dB,4.90467924526550e+000°)
1.04231742939331e+002	(1.17390728209663e+002dB,4.89925203927908e+000°)
1.04351813272863e+002	(1.17371122815848e+002dB,4.89383037748603e+000°)
1.04472021922080e+002	(1.17351516527038e+002dB,4.88841425954365e+000°)
1.04592369046317e+002	(1.17331909336921e+002dB,4.88300367037288e+000°)
1.04712854805090e+002	(1.17312301260231e+002dB,4.87759861379941e+000°)
1.04833479358100e+002	(1.17292692298477e+002dB,4.87219908759110e+000°)
1.04954242865233e+002	(1.17273082449015e+002dB,4.86680508420385e+000°)
1.05075145486555e+002	(1.17253471718905e+002dB,4.86141659831328e+000°)
1.05196187382323e+002	(1.17233860095077e+002dB,4.85603362883579e+000°)
1.05317368712972e+002	(1.17214247603022e+002dB,4.85065617093750e+000°)
1.05438689639126e+002	(1.17194634222810e+002dB,4.84528421710449e+000°)
1.05560150321593e+002	(1.17175019962072e+002dB,4.83991776563383e+000°)
1.05681750921366e+002	(1.17155404829985e+002dB,4.83455681698268e+000°)
1.05803491599623e+002	(1.17135788827823e+002dB,4.82920135922864e+000°)
1.05925372517729e+002	(1.17116171946452e+002dB,4.82385139296335e+000°)
1.06047393837234e+002	(1.17096554202676e+002dB,4.81850691611110e+000°)
1.06169555719873e+002	(1.17076935588199e+002dB,4.81316792139374e+000°)
1.06291858327569e+002	(1.17057316106260e+002dB,4.80783439852452e+000°)
1.06414301822432e+002	(1.17037695762551e+002dB,4.80250635646438e+000°)
1.06536886366757e+002	(1.17018074550352e+002dB,4.79718378345773e+000°)
1.06659612123026e+002	(1.16998452480595e+002dB,4.79186667520139e+000°)
1.06782479253910e+002	(1.16978829557387e+002dB,4.78655503276122e+000°)
1.06905487922266e+002	(1.16959205777864e+002dB,4.78124884606649e+000°)
1.07028638291139e+002	(1.16939581136614e+002dB,4.77594811224872e+000°)
1.07151930523761e+002	(1.16919955641412e+002dB,4.77065282511428e+000°)
1.07275364783553e+002	(1.16900329298975e+002dB,4.76536298934192e+000°)
1.07398941234125e+002	(1.16880702106129e+002dB,4.76007859435191e+000°)
1.07522660039273e+002	(1.16861074069703e+002dB,4.75479963590652e+000°)
1.07646521362984e+002	(1.16841445189018e+002dB,4.74952611338794e+000°)
1.07770525369433e+002	(1.16821815457746e+002dB,4.74425801449770e+000°)
1.07894672222983e+002	(1.16802184881387e+002dB,4.73899534290335e+000°)
1.08018962088190e+002	(1.16782553474399e+002dB,4.73373809513337e+000°)
1.08143395129794e+002	(1.16762921219540e+002dB,4.72848625943602e+000°)
1.08267971512730e+002	(1.16743288136133e+002dB,4.72323983988810e+000°)
1.08392691402121e+002	(1.16723654209687e+002dB,4.71799882844608e+000°)
1.08517554963279e+002	(1.16704019455730e+002dB,4.71276322148505e+000°)
1.08642562361707e+002	(1.16684383870353e+002dB,4.70753301551740e+000°)
1.08767713763100e+002	(1.16664747457310e+002dB,4.70230820634224e+000°)
1.08893009333344e+002	(1.16645110207521e+002dB,4.69708878547866e+000°)
1.09018449238513e+002	(1.16625472137078e+002dB,4.69187475466300e+000°)
1.09144033644876e+002	(1.16605833238916e+002dB,4.68666610606608e+000°)
1.09269762718892e+002	(1.16586193529108e+002dB,4.68146284355430e+000°)
1.09395636627210e+002	(1.16566552987005e+002dB,4.67626494982453e+000°)
1.09521655536674e+002	(1.16546911637251e+002dB,4.67107243108520e+000°)
1.09647819614319e+002	(1.16527269459925e+002dB,4.66588528065601e+000°)
1.09774129027372e+002	(1.16507626466662e+002dB,4.66070349094223e+000°)
1.09900583943253e+002	(1.16487982667934e+002dB,4.65552705931432e+000°)
1.10027184529574e+002	(1.16468338050215e+002dB,4.65035598336283e+000°)
1.10153930954142e+002	(1.16448692633178e+002dB,4.64519026232734e+000°)
1.10280823384956e+002	(1.16429046396049e+002dB,4.64002988212810e+000°)
1.10407861990208e+002	(1.16409399355524e+002dB,4.63487484861629e+000°)
1.10535046938285e+002	(1.16389751513498e+002dB,4.62972515103930e+000°)
1.10662378397767e+002	(1.16370102869036e+002dB,4.62458078870810e+000°)
1.10789856537430e+002	(1.16350453418983e+002dB,4.61944175796997e+000°)
1.10917481526241e+002	(1.16330803171519e+002dB,4.61430804913784e+000°)
1.11045253533365e+002	(1.16311152126040e+002dB,4.60917966488320e+000°)
1.11173172728160e+002	(1.16291500284266e+002dB,4.60405659688640e+000°)
1.11301239280180e+002	(1.16271847644287e+002dB,4.59893884074028e+000°)
1.11429453359174e+002	(1.16252194219055e+002dB,4.59382639722882e+000°)
1.11557815135086e+002	(1.16232539999426e+002dB,4.58871925744788e+000°)
1.11686324778057e+002	(1.16212884986031e+002dB,4.58361741889653e+000°)
1.11814982458423e+002	(1.16193229193745e+002dB,4.57852087586173e+000°)
1.11943788346716e+002	(1.16173572604575e+002dB,4.57342962392268e+000°)
1.12072742613665e+002	(1.16153915239964e+002dB,4.56834366581319e+000°)
1.12201845430197e+002	(1.16134257087378e+002dB,4.56326298889878e+000°)
1.12331096967433e+002	(1.16114598161184e+002dB,4.55818759349644e+000°)
1.12460497396693e+002	(1.16094938446999e+002dB,4.55311747059267e+000°)
1.12590046889495e+002	(1.16075277962531e+002dB,4.54805262152002e+000°)
1.12719745617552e+002	(1.16055616699200e+002dB,4.54299304183886e+000°)
1.12849593752777e+002	(1.16035954661778e+002dB,4.53793872142126e+000°)
1.12979591467281e+002	(1.16016291854254e+002dB,4.53288966356827e+000°)
1.13109738933371e+002	(1.15996628266998e+002dB,4.52784585929000e+000°)
1.13240036323557e+002	(1.15976963915606e+002dB,4.52280730530021e+000°)
1.13370483810542e+002	(1.15957298799312e+002dB,4.51777399864488e+000°)
1.13501081567232e+002	(1.15937632917757e+002dB,4.51274593447993e+000°)
1.13631829766732e+002	(1.15917966269262e+002dB,4.50772310745666e+000°)
1.13762728582344e+002	(1.15898298864786e+002dB,4.50270551718416e+000°)
1.13893778187572e+002	(1.15878630689007e+002dB,4.49769315391121e+000°)
1.14024978756118e+002	(1.15858961763656e+002dB,4.49268601835096e+000°)
1.14156330461885e+002	(1.15839292073698e+002dB,4.48768410463754e+000°)
1.14287833478978e+002	(1.15819621631827e+002dB,4.48268740580827e+000°)
1.14419487981699e+002	(1.15799950431163e+002dB,4.47769592246164e+000°)
1.14551294144554e+002	(1.15780278486335e+002dB,4.47270964938687e+000°)
1.14683252142249e+002	(1.15760605780084e+002dB,4.46772857675034e+000°)
1.14815362149689e+002	(1.15740932329108e+002dB,4.46275270652194e+000°)
1.14947624341984e+002	(1.15721258128515e+002dB,4.45778203421482e+000°)
1.15080038894444e+002	(1.15701583181038e+002dB,4.45281655056517e+000°)
1.15212605982582e+002	(1.15681907492771e+002dB,4.44785625795769e+000°)
1.15345325782110e+002	(1.15662231058534e+002dB,4.44290114937323e+000°)
1.15478198468947e+002	(1.15642553884078e+002dB,4.43795121976852e+000°)
1.15611224219211e+002	(1.15622875972246e+002dB,4.43300646574120e+000°)
1.15744403209225e+002	(1.15603197317956e+002dB,4.42806688283282e+000°)
1.15877735615514e+002	(1.15583517927913e+002dB,4.42313246794794e+000°)
1.16011221614806e+002	(1.15563837808077e+002dB,4.41820321554095e+000°)
1.16144861384035e+002	(1.15544156950660e+002dB,4.41327912075276e+000°)
1.16278655100336e+002	(1.15524475362377e+002dB,4.40836017936170e+000°)
1.16412602941050e+002	(1.15504793042196e+002dB,4.40344638752433e+000°)
1.16546705083721e+002	(1.15485109993212e+002dB,4.39853774384372e+000°)
1.16680961706097e+002	(1.15465426218683e+002dB,4.39363424203972e+000°)
1.16815372986133e+002	(1.15445741716552e+002dB,4.38873588048725e+000°)
1.16949939101988e+002	(1.15426056497111e+002dB,4.38384264891699e+000°)
1.17084660232025e+002	(1.15406370546472e+002dB,4.37895454529571e+000°)
1.17219536554814e+002	(1.15386683880138e+002dB,4.37407156848413e+000°)
1.17354568249130e+002	(1.15366996495396e+002dB,4.36919371246976e+000°)
1.17489755493954e+002	(1.15347308389860e+002dB,4.36432097357850e+000°)
1.17625098468473e+002	(1.15327619568256e+002dB,4.35945334616138e+000°)
1.17760597352082e+002	(1.15307930030903e+002dB,4.35459082839557e+000°)
1.17896252324380e+002	(1.15288239781930e+002dB,4.34973341210922e+000°)
1.18032063565174e+002	(1.15268548822578e+002dB,4.34488109819704e+000°)
1.18168031254479e+002	(1.15248857150339e+002dB,4.34003387681228e+000°)
1.18304155572518e+002	(1.15229164773883e+002dB,4.33519174885433e+000°)
1.18440436699718e+002	(1.15209471690405e+002dB,4.33035470721556e+000°)
1.18576874816717e+002	(1.15189777897124e+002dB,4.32552274847540e+000°)
1.18713470104361e+002	(1.15170083406567e+002dB,4.32069587154608e+000°)
1.18850222743703e+002	(1.15150388204242e+002dB,4.31587406331846e+000°)
1.18987132916005e+002	(1.15130692305069e+002dB,4.31105732816396e+000°)
1.19124200802739e+002	(1.15110995705806e+002dB,4.30624565994466e+000°)
1.19261426585583e+002	(1.15091298413746e+002dB,4.30143905207113e+000°)
1.19398810446429e+002	(1.15071600421457e+002dB,4.29663750431760e+000°)
1.19536352567373e+002	(1.15051901737110e+002dB,4.29184100665453e+000°)
1.19674053130726e+002	(1.15032202359602e+002dB,4.28704956321963e+000°)
1.19811912319005e+002	(1.15012502284705e+002dB,4.28226316050704e+000°)
1.19949930314939e+002	(1.14992801522937e+002dB,4.27748180089049e+000°)
1.20088107301468e+002	(1.14973100075157e+002dB,4.27270547454953e+000°)
1.20226443461743e+002	(1.14953397936547e+002dB,4.26793418321048e+000°)
1.20364938979123e+002	(1.14933695112729e+002dB,4.26316791886368e+000°)
1.20503594037181e+002	(1.14913991604606e+002dB,4.25840667861218e+000°)
1.20642408819701e+002	(1.14894287414300e+002dB,4.25365045957170e+000°)
1.20781383510679e+002	(1.14874582533257e+002dB,4.24889925206067e+000°)
1.20920518294322e+002	(1.14854876983771e+002dB,4.24415306077463e+000°)
1.21059813355050e+002	(1.14835170752596e+002dB,4.23941187028262e+000°)
1.21199268877494e+002	(1.14815463849074e+002dB,4.23467569007502e+000°)
1.21338885046499e+002	(1.14795756266790e+002dB,4.22994450470632e+000°)
1.21478662047124e+002	(1.14776048004772e+002dB,4.22521831414721e+000°)
1.21618600064638e+002	(1.14756339077191e+002dB,4.22049711357845e+000°)
1.21758699284527e+002	(1.14736629474180e+002dB,4.21578089924275e+000°)
1.21898959892488e+002	(1.14716919208233e+002dB,4.21106966728974e+000°)
1.22039382074433e+002	(1.14697208260138e+002dB,4.20636340736507e+000°)
1.22179966016489e+002	(1.14677496657519e+002dB,4.20166212838564e+000°)
1.22320711904995e+002	(1.14657784383420e+002dB,4.19696581433512e+000°)
1.22461619926506e+002	(1.14638071448529e+002dB,4.19227446849566e+000°)
1.22602690267794e+002	(1.14618357850722e+002dB,4.18758808078908e+000°)
1.22743923115842e+002	(1.14598643589717e+002dB,4.18290664804359e+000°)
1.22885318657852e+002	(1.14578928674728e+002dB,4.17823017220447e+000°)
1.23026877081240e+002	(1.14559213091169e+002dB,4.17355863797699e+000°)
1.23168598573637e+002	(1.14539496861007e+002dB,4.16889205188517e+000°)
1.23310483322892e+002	(1.14519779972940e+002dB,4.16423040627251e+000°)
1.23452531517070e+002	(1.14500062421924e+002dB,4.15957369522595e+000°)
1.23594743344452e+002	(1.14480344232333e+002dB,4.15492191273641e+000°)
1.23737118993537e+002	(1.14460625385284e+002dB,4.15027506086833e+000°)
1.23879658653038e+002	(1.14440905883001e+002dB,4.14563312833770e+000°)
1.24022362511890e+002	(1.14421185741118e+002dB,4.14099611621085e+000°)
1.24165230759243e+002	(1.14401464948052e+002dB,4.13636401665290e+000°)
1.24308263584464e+002	(1.14381743509695e+002dB,4.13173682765035e+000°)
1.24451461177140e+002	(1.14362021427802e+002dB,4.12711454797545e+000°)
1.24594823727076e+002	(1.14342298701573e+002dB,4.12249716632260e+000°)
1.24738351424296e+002	(1.14322575336363e+002dB,4.11788468285049e+000°)
1.24882044459041e+002	(1.14302851326205e+002dB,4.11327709066758e+000°)
1.25025903021774e+002	(1.14283126682652e+002dB,4.10867439114732e+000°)
1.25169927303174e+002	(1.14263401400046e+002dB,4.10407657439472e+000°)
1.25314117494143e+002	(1.14243675479815e+002dB,4.09948363809295e+000°)
1.25458473785801e+002	(1.14223948929805e+002dB,4.09489557851355e+000°)
1.25602996369489e+002	(1.14204221742610e+002dB,4.09031239039950e+000°)
1.25747685436768e+002	(1.14184493921021e+002dB,4.08573407213608e+000°)
1.25892541179418e+002	(1.14164765475073e+002dB,4.08116061562848e+000°)
1.26037563789444e+002	(1.14145036401102e+002dB,4.07659201964568e+000°)
1.26182753459069e+002	(1.14125306695352e+002dB,4.07202827818156e+000°)
1.26328110380737e+002	(1.14105576363145e+002dB,4.06746939015822e+000°)
1.26473634747117e+002	(1.14085845408621e+002dB,4.06291534569669e+000°)
1.26619326751096e+002	(1.14066113826477e+002dB,4.05836614560879e+000°)
1.26765186585786e+002	(1.14046381629035e+002dB,4.05382178462231e+000°)
1.26911214444521e+002	(1.14026648803036e+002dB,4.04928225586510e+000°)
1.27057410520856e+002	(1.14006915362898e+002dB,4.04474755915160e+000°)
1.27203775008571e+002	(1.13987181297311e+002dB,4.04021768617348e+000°)
1.27350308101668e+002	(1.13967446619954e+002dB,4.03569263357583e+000°)
1.27497009994373e+002	(1.13947711330574e+002dB,4.03117240499252e+000°)
1.27643880881136e+002	(1.13927975421412e+002dB,4.02665698413666e+000°)
1.27790920956630e+002	(1.13908238896880e+002dB,4.02214637212375e+000°)
1.27938130415754e+002	(1.13888501765362e+002dB,4.01764056729090e+000°)
1.28085509453630e+002	(1.13868764025743e+002dB,4.01313956246907e+000°)
1.28233058265604e+002	(1.13849025670628e+002dB,4.00864335306467e+000°)
1.28380777047249e+002	(1.13829286710711e+002dB,4.00415193517492e+000°)
1.28528665994363e+002	(1.13809547148786e+002dB,3.99966530573686e+000°)
1.28676725302969e+002	(1.13789806975739e+002dB,3.99518346126873e+000°)
1.28824955169315e+002	(1.13770066204698e+002dB,3.99070639714794e+000°)
1.28973355789877e+002	(1.13750324826340e+002dB,3.98623410787950e+000°)
1.29121927361355e+002	(1.13730582846754e+002dB,3.98176658741625e+000°)
1.29270670080678e+002	(1.13710840272611e+002dB,3.97730383557791e+000°)
1.29419584145000e+002	(1.13691097093056e+002dB,3.97284584651005e+000°)
1.29568669751704e+002	(1.13671353316467e+002dB,3.96839261377930e+000°)
1.29717927098397e+002	(1.13651608951817e+002dB,3.96394414069297e+000°)
1.29867356382918e+002	(1.13631863987892e+002dB,3.95950041474961e+000°)
1.30016957803331e+002	(1.13612118425812e+002dB,3.95506143355928e+000°)
1.30166731557928e+002	(1.13592372277077e+002dB,3.95062719452945e+000°)
1.30316677845232e+002	(1.13572625535137e+002dB,3.94619769445011e+000°)
1.30466796863991e+002	(1.13552878208448e+002dB,3.94177292666931e+000°)
1.30617088813186e+002	(1.13533130290488e+002dB,3.93735288806900e+000°)
1.30767553892024e+002	(1.13513381780585e+002dB,3.93293757333894e+000°)
1.30918192299943e+002	(1.13493632690506e+002dB,3.92852698440426e+000°)
1.31069004236610e+002	(1.13473883016242e+002dB,3.92412110645035e+000°)
1.31219989901922e+002	(1.13454132754945e+002dB,3.91971994284989e+000°)
1.31371149496008e+002	(1.13434381914572e+002dB,3.91532348773731e+000°)
1.31522483219226e+002	(1.13414630494033e+002dB,3.91093173780593e+000°)
1.31673991272164e+002	(1.13394878491317e+002dB,3.90654468673331e+000°)
1.31825673855643e+002	(1.13375125913967e+002dB,3.90216232987651e+000°)
1.31977531170714e+002	(1.13355372751894e+002dB,3.89778466522642e+000°)
1.32129563418659e+002	(1.13335619025844e+002dB,3.89341169017379e+000°)
1.32281770800995e+002	(1.13315864716146e+002dB,3.88904339404068e+000°)
1.32434153519468e+002	(1.13296109834989e+002dB,3.88467978046714e+000°)
1.32586711776058e+002	(1.13276354382868e+002dB,3.88032083797544e+000°)
1.32739445772976e+002	(1.13256598362318e+002dB,3.87596657246815e+000°)
1.32892355712668e+002	(1.13236841767685e+002dB,3.87161696706344e+000°)
1.33045441797811e+002	(1.13217084604431e+002dB,3.86727202567204e+000°)
1.33198704231318e+002	(1.13197326876576e+002dB,3.86293174258292e+000°)
1.33352143216334e+002	(1.13177568583798e+002dB,3.85859611314087e+000°)
1.33505758956239e+002	(1.13157809722398e+002dB,3.85426513311364e+000°)
1.33659551654646e+002	(1.13138050303790e+002dB,3.84993880063328e+000°)
1.33813521515404e+002	(1.13118290316762e+002dB,3.84561710716593e+000°)
1.33967668742596e+002	(1.13098529769165e+002dB,3.84130005037979e+000°)
1.34121993540539e+002	(1.13078768665085e+002dB,3.83698762795348e+000°)
1.34276496113788e+002	(1.13059007002899e+002dB,3.83267983487972e+000°)
1.34431176667133e+002	(1.13039244779310e+002dB,3.82837666452817e+000°)
1.34586035405597e+002	(1.13019482004000e+002dB,3.82407811478312e+000°)
1.34741072534443e+002	(1.12999718666403e+002dB,3.81978418278023e+000°)
1.34896288259167e+002	(1.12979954780316e+002dB,3.81549486206053e+000°)
1.35051682785506e+002	(1.12960190343527e+002dB,3.81121014951444e+000°)
1.35207256319430e+002	(1.12940425354615e+002dB,3.80693004132926e+000°)
1.35363009067148e+002	(1.12920659811510e+002dB,3.80265453294279e+000°)
1.35518941235106e+002	(1.12900893722974e+002dB,3.79838361832710e+000°)
1.35675053029988e+002	(1.12881127086013e+002dB,3.79411729411723e+000°)
1.35831344658718e+002	(1.12861359898549e+002dB,3.78985555894904e+000°)
1.35987816328454e+002	(1.12841592169316e+002dB,3.78559840823172e+000°)
1.36144468246597e+002	(1.12821823895380e+002dB,3.78134583282567e+000°)
1.36301300620785e+002	(1.12802055071173e+002dB,3.77709783264143e+000°)
1.36458313658895e+002	(1.12782285714728e+002dB,3.77285440482773e+000°)
1.36615507569043e+002	(1.12762515814657e+002dB,3.76861554506530e+000°)
1.36772882559587e+002	(1.12742745374035e+002dB,3.76438124340541e+000°)
1.36930438839123e+002	(1.12722974393684e+002dB,3.76015150203181e+000°)
1.37088176616488e+002	(1.12703202875838e+002dB,3.75592631344427e+000°)
1.37246096100758e+002	(1.12683430825310e+002dB,3.75170567469498e+000°)
1.37404197501254e+002	(1.12663658236215e+002dB,3.74748958184527e+000°)
1.37562481027533e+002	(1.12643885114595e+002dB,3.74327803253747e+000°)
1.37720946889397e+002	(1.12624111459536e+002dB,3.73907101812385e+000°)
1.37879595296888e+002	(1.12604337272565e+002dB,3.73486853495045e+000°)
1.38038426460291e+002	(1.12584562553698e+002dB,3.73067058197093e+000°)
