Freq.	V(feedb)/V(inv)
1.00000000000000e+002	(1.19504620537027e+002dB,4.06133056927027e+000°)
1.00115195553817e+002	(1.19485124810829e+002dB,4.05686291841981e+000°)
1.00230523807790e+002	(1.19465627962738e+002dB,4.05239962330560e+000°)
1.00345984914784e+002	(1.19446129977399e+002dB,4.04794067104128e+000°)
1.00461579027840e+002	(1.19426630861114e+002dB,4.04348606539155e+000°)
1.00577306300174e+002	(1.19407130615111e+002dB,4.03903579574290e+000°)
1.00693166885180e+002	(1.19387629261963e+002dB,4.03458987765351e+000°)
1.00809160936430e+002	(1.19368126773735e+002dB,4.03014828274445e+000°)
1.00925288607668e+002	(1.19348623171726e+002dB,4.02571102418619e+000°)
1.01041550052821e+002	(1.19329118449233e+002dB,4.02127810113133e+000°)
1.01157945425990e+002	(1.19309612616702e+002dB,4.01684950197751e+000°)
1.01274474881453e+002	(1.19290105669143e+002dB,4.01242523301876e+000°)
1.01391138573668e+002	(1.19270597621253e+002dB,4.00800528859112e+000°)
1.01507936657269e+002	(1.19251088456927e+002dB,4.00358965952584e+000°)
1.01624869287070e+002	(1.19231578192952e+002dB,3.99917835101387e+000°)
1.01741936618061e+002	(1.19212066815344e+002dB,3.99477135741380e+000°)
1.01859138805412e+002	(1.19192554350827e+002dB,3.99036867936381e+000°)
1.01976476004472e+002	(1.19173040793261e+002dB,3.98597031445659e+000°)
1.02093948370768e+002	(1.19153526127026e+002dB,3.98157625061774e+000°)
1.02211556060007e+002	(1.19134010371362e+002dB,3.97718649443842e+000°)
1.02329299228076e+002	(1.19114493531041e+002dB,3.97280104366702e+000°)
1.02447178031038e+002	(1.19094975600034e+002dB,3.96841989011504e+000°)
1.02565192625141e+002	(1.19075456577373e+002dB,3.96404302804412e+000°)
1.02683343166809e+002	(1.19055936473451e+002dB,3.95967046942921e+000°)
1.02801629812648e+002	(1.19036415299312e+002dB,3.95530220142976e+000°)
1.02920052719443e+002	(1.19016893030039e+002dB,3.95093822099151e+000°)
1.03038612044162e+002	(1.18997369694450e+002dB,3.94657852677323e+000°)
1.03157307943951e+002	(1.18977845288304e+002dB,3.94222311805176e+000°)
1.03276140576140e+002	(1.18958319805452e+002dB,3.93787198988609e+000°)
1.03395110098237e+002	(1.18938793249415e+002dB,3.93352513761434e+000°)
1.03514216667935e+002	(1.18919265624306e+002dB,3.92918256262076e+000°)
1.03633460443104e+002	(1.18899736943256e+002dB,3.92484426102487e+000°)
1.03752841581801e+002	(1.18880207199011e+002dB,3.92051023313398e+000°)
1.03872360242262e+002	(1.18860676394611e+002dB,3.91618047393382e+000°)
1.03992016582906e+002	(1.18841144530510e+002dB,3.91185497852074e+000°)
1.04111810762334e+002	(1.18821611605116e+002dB,3.90753374264491e+000°)
1.04231742939331e+002	(1.18802077623199e+002dB,3.90321676387774e+000°)
1.04351813272863e+002	(1.18782542604438e+002dB,3.89890404882516e+000°)
1.04472021922080e+002	(1.18763006533147e+002dB,3.89459558815862e+000°)
1.04592369046317e+002	(1.18743469405154e+002dB,3.89029137701626e+000°)
1.04712854805090e+002	(1.18723931243713e+002dB,3.88599141555798e+000°)
1.04833479358100e+002	(1.18704392038778e+002dB,3.88169569900390e+000°)
1.04954242865233e+002	(1.18684851784081e+002dB,3.87740422713885e+000°)
1.05075145486555e+002	(1.18665310506090e+002dB,3.87311699693482e+000°)
1.05196187382323e+002	(1.18645768182906e+002dB,3.86883399860069e+000°)
1.05317368712972e+002	(1.18626224827329e+002dB,3.86455524119510e+000°)
1.05438689639126e+002	(1.18606680444629e+002dB,3.86028072010819e+000°)
1.05560150321593e+002	(1.18587135032671e+002dB,3.85601042387654e+000°)
1.05681750921366e+002	(1.18567588582948e+002dB,3.85174435239802e+000°)
1.05803491599623e+002	(1.18548041127743e+002dB,3.84748250673572e+000°)
1.05925372517729e+002	(1.18528492636239e+002dB,3.84322488584844e+000°)
1.06047393837234e+002	(1.18508943130339e+002dB,3.83897148463124e+000°)
1.06169555719873e+002	(1.18489392610187e+002dB,3.83472229452360e+000°)
1.06291858327569e+002	(1.18469841063339e+002dB,3.83047732117975e+000°)
1.06414301822432e+002	(1.18450288513919e+002dB,3.82623655969013e+000°)
1.06536886366757e+002	(1.18430734953284e+002dB,3.82200000448144e+000°)
1.06659612123026e+002	(1.18411180378856e+002dB,3.81776765183758e+000°)
1.06782479253910e+002	(1.18391624797546e+002dB,3.81353950495990e+000°)
1.06905487922266e+002	(1.18372068215930e+002dB,3.80931555526853e+000°)
1.07028638291139e+002	(1.18352510624938e+002dB,3.80509580424547e+000°)
1.07151930523761e+002	(1.18332952039581e+002dB,3.80088024605884e+000°)
1.07275364783553e+002	(1.18313392459193e+002dB,3.79666887923611e+000°)
1.07398941234125e+002	(1.18293831873433e+002dB,3.79246170071157e+000°)
1.07522660039273e+002	(1.18274270301513e+002dB,3.78825870688499e+000°)
1.07646521362984e+002	(1.18254707741739e+002dB,3.78405990140642e+000°)
1.07770525369433e+002	(1.18235144178889e+002dB,3.77986526945815e+000°)
1.07894672222983e+002	(1.18215579634529e+002dB,3.77567481415131e+000°)
1.08018962088190e+002	(1.18196014107948e+002dB,3.77148853639290e+000°)
1.08143395129794e+002	(1.18176447592377e+002dB,3.76730642561344e+000°)
1.08267971512730e+002	(1.18156880100398e+002dB,3.76312848802283e+000°)
1.08392691402121e+002	(1.18137311628380e+002dB,3.75895471815589e+000°)
1.08517554963279e+002	(1.18117742178128e+002dB,3.75478510649075e+000°)
1.08642562361707e+002	(1.18098171755509e+002dB,3.75061965561746e+000°)
1.08767713763100e+002	(1.18078600361122e+002dB,3.74645836684187e+000°)
1.08893009333344e+002	(1.18059027996089e+002dB,3.74230122707030e+000°)
1.09018449238513e+002	(1.18039454663336e+002dB,3.73814823883529e+000°)
1.09144033644876e+002	(1.18019880360979e+002dB,3.73399940434905e+000°)
1.09269762718892e+002	(1.18000305097144e+002dB,3.72985471406640e+000°)
1.09395636627210e+002	(1.17980728874815e+002dB,3.72571416575306e+000°)
1.09521655536674e+002	(1.17961151680280e+002dB,3.72157775618525e+000°)
1.09647819614319e+002	(1.17941573540969e+002dB,3.71744548651443e+000°)
1.09774129027372e+002	(1.17921994433801e+002dB,3.71331735195809e+000°)
1.09900583943253e+002	(1.17902414377220e+002dB,3.70919334462519e+000°)
1.10027184529574e+002	(1.17882833372604e+002dB,3.70507347118104e+000°)
1.10153930954142e+002	(1.17863251418973e+002dB,3.70095772348722e+000°)
1.10280823384956e+002	(1.17843668513981e+002dB,3.69684609870504e+000°)
1.10407861990208e+002	(1.17824084661225e+002dB,3.69273859488292e+000°)
1.10535046938285e+002	(1.17804499874259e+002dB,3.68863520891610e+000°)
1.10662378397767e+002	(1.17784914141991e+002dB,3.68453593315463e+000°)
1.10789856537430e+002	(1.17765327465417e+002dB,3.68044077521346e+000°)
1.10917481526241e+002	(1.17745739861056e+002dB,3.67634972029800e+000°)
1.11045253533365e+002	(1.17726151305435e+002dB,3.67226277379761e+000°)
1.11173172728160e+002	(1.17706561834117e+002dB,3.66817993372001e+000°)
1.11301239280180e+002	(1.17686971416106e+002dB,3.66410118689163e+000°)
1.11429453359174e+002	(1.17667380078045e+002dB,3.66002654082733e+000°)
1.11557815135086e+002	(1.17647787807689e+002dB,3.65595599241200e+000°)
1.11686324778057e+002	(1.17628194615848e+002dB,3.65188953228807e+000°)
1.11814982458423e+002	(1.17608600496667e+002dB,3.64782716174257e+000°)
1.11943788346716e+002	(1.17589005467051e+002dB,3.64376887639785e+000°)
1.12072742613665e+002	(1.17569409510224e+002dB,3.63971467121826e+000°)
1.12201845430197e+002	(1.17549812624692e+002dB,3.63566454569241e+000°)
1.12331096967433e+002	(1.17530214834256e+002dB,3.63161850064684e+000°)
1.12460497396693e+002	(1.17510616136990e+002dB,3.62757652794570e+000°)
1.12590046889495e+002	(1.17491016515910e+002dB,3.62353862550741e+000°)
1.12719745617552e+002	(1.17471415995035e+002dB,3.61950479414939e+000°)
1.12849593752777e+002	(1.17451814564825e+002dB,3.61547502770293e+000°)
1.12979591467281e+002	(1.17432212229822e+002dB,3.61144932145584e+000°)
1.13109738933371e+002	(1.17412608984636e+002dB,3.60742767852219e+000°)
1.13240036323557e+002	(1.17393004839543e+002dB,3.60341009120518e+000°)
1.13370483810542e+002	(1.17373399796802e+002dB,3.59939655282306e+000°)
1.13501081567232e+002	(1.17353793866102e+002dB,3.59538707046991e+000°)
1.13631829766732e+002	(1.17334187026596e+002dB,3.59138163516242e+000°)
1.13762728582344e+002	(1.17314579292765e+002dB,3.58738024043682e+000°)
1.13893778187572e+002	(1.17294970676857e+002dB,3.58338289069862e+000°)
1.14024978756118e+002	(1.17275361165315e+002dB,3.57938958138229e+000°)
1.14156330461885e+002	(1.17255750761578e+002dB,3.57540030964424e+000°)
1.14287833478978e+002	(1.17236139478495e+002dB,3.57141506783535e+000°)
1.14419487981699e+002	(1.17216527310820e+002dB,3.56743385453050e+000°)
1.14551294144554e+002	(1.17196914260034e+002dB,3.56345666971913e+000°)
1.14683252142249e+002	(1.17177300327230e+002dB,3.55948350893561e+000°)
1.14815362149689e+002	(1.17157685513548e+002dB,3.55551436998427e+000°)
1.14947624341984e+002	(1.17138069826977e+002dB,3.55154925059562e+000°)
1.15080038894444e+002	(1.17118453266663e+002dB,3.54758814481048e+000°)
1.15212605982582e+002	(1.17098835834921e+002dB,3.54363105427620e+000°)
1.15345325782110e+002	(1.17079217526857e+002dB,3.53967797163889e+000°)
1.15478198468947e+002	(1.17059598352755e+002dB,3.53572889438802e+000°)
1.15611224219211e+002	(1.17039978314759e+002dB,3.53178382293761e+000°)
1.15744403209225e+002	(1.17020357403259e+002dB,3.52784274732155e+000°)
1.15877735615514e+002	(1.17000735628231e+002dB,3.52390567120711e+000°)
1.16011221614806e+002	(1.16981113001518e+002dB,3.51997259457360e+000°)
1.16144861384035e+002	(1.16961489513991e+002dB,3.51604350549995e+000°)
1.16278655100336e+002	(1.16941865162348e+002dB,3.51211840237568e+000°)
1.16412602941050e+002	(1.16922239963496e+002dB,3.50819729360435e+000°)
1.16546705083721e+002	(1.16902613903440e+002dB,3.50428015676339e+000°)
1.16680961706097e+002	(1.16882986988683e+002dB,3.50036700828920e+000°)
1.16815372986133e+002	(1.16863359231199e+002dB,3.49645783533761e+000°)
1.16949939101988e+002	(1.16843730618102e+002dB,3.49255263293427e+000°)
1.17084660232025e+002	(1.16824101163872e+002dB,3.48865140284932e+000°)
1.17219536554814e+002	(1.16804470860955e+002dB,3.48475414080174e+000°)
1.17354568249130e+002	(1.16784839721204e+002dB,3.48086084403082e+000°)
1.17489755493954e+002	(1.16765207729035e+002dB,3.47697150767554e+000°)
1.17625098468473e+002	(1.16745574904103e+002dB,3.47308613189202e+000°)
1.17760597352082e+002	(1.16725941250235e+002dB,3.46920471260675e+000°)
1.17896252324380e+002	(1.16706306750968e+002dB,3.46532724192671e+000°)
1.18032063565174e+002	(1.16686671421775e+002dB,3.46145372484427e+000°)
1.18168031254479e+002	(1.16667035253870e+002dB,3.45758415467957e+000°)
1.18304155572518e+002	(1.16647398263176e+002dB,3.45371852957480e+000°)
1.18440436699718e+002	(1.16627760439380e+002dB,3.44985684189138e+000°)
1.18576874816717e+002	(1.16608121796602e+002dB,3.44599909241546e+000°)
1.18713470104361e+002	(1.16588482323029e+002dB,3.44214527960959e+000°)
1.18850222743703e+002	(1.16568842027694e+002dB,3.43829539902220e+000°)
1.18987132916005e+002	(1.16549200909846e+002dB,3.43444944556139e+000°)
1.19124200802739e+002	(1.16529558968680e+002dB,3.43060741864870e+000°)
1.19261426585583e+002	(1.16509916209567e+002dB,3.42676931113579e+000°)
1.19398810446429e+002	(1.16490272644968e+002dB,3.42293512967907e+000°)
1.19536352567373e+002	(1.16470628254556e+002dB,3.41910486149167e+000°)
1.19674053130726e+002	(1.16450983058530e+002dB,3.41527850862554e+000°)
1.19811912319005e+002	(1.16431337053351e+002dB,3.41145606666974e+000°)
1.19949930314939e+002	(1.16411690231889e+002dB,3.40763753146565e+000°)
1.20088107301468e+002	(1.16392042609270e+002dB,3.40382289987026e+000°)
1.20226443461743e+002	(1.16372394178528e+002dB,3.40001217080800e+000°)
1.20364938979123e+002	(1.16352744943212e+002dB,3.39620534090367e+000°)
1.20503594037181e+002	(1.16333094909795e+002dB,3.39240240844989e+000°)
1.20642408819701e+002	(1.16313444077907e+002dB,3.38860336612692e+000°)
1.20781383510679e+002	(1.16293792445539e+002dB,3.38480821471569e+000°)
1.20920518294322e+002	(1.16274140011117e+002dB,3.38101695007911e+000°)
1.21059813355050e+002	(1.16254486778308e+002dB,3.37722956615858e+000°)
1.21199268877494e+002	(1.16234832763434e+002dB,3.37344606811970e+000°)
1.21338885046499e+002	(1.16215177952379e+002dB,3.36966644149420e+000°)
1.21478662047124e+002	(1.16195522353911e+002dB,3.36589069240739e+000°)
1.21618600064638e+002	(1.16175865965033e+002dB,3.36211881451562e+000°)
1.21758699284527e+002	(1.16156208792771e+002dB,3.35835080607529e+000°)
1.21898959892488e+002	(1.16136550829635e+002dB,3.35458665895792e+000°)
1.22039382074433e+002	(1.16116892093693e+002dB,3.35082638145842e+000°)
1.22179966016489e+002	(1.16097232570067e+002dB,3.34706995791904e+000°)
1.22320711904995e+002	(1.16077572261924e+002dB,3.34331738985821e+000°)
1.22461619926506e+002	(1.16057911181438e+002dB,3.33956867798103e+000°)
1.22602690267794e+002	(1.16038249326013e+002dB,3.33582381322487e+000°)
1.22743923115842e+002	(1.16018586698332e+002dB,3.33208279914276e+000°)
1.22885318657852e+002	(1.15998923290407e+002dB,3.32834562800258e+000°)
1.23026877081240e+002	(1.15979259118219e+002dB,3.32461229892903e+000°)
1.23168598573637e+002	(1.15959594171008e+002dB,3.32088280426638e+000°)
1.23310483322892e+002	(1.15939928458313e+002dB,3.31715714628997e+000°)
1.23452531517070e+002	(1.15920261978568e+002dB,3.31343532111120e+000°)
1.23594743344452e+002	(1.15900594728998e+002dB,3.30971732056063e+000°)
1.23737118993537e+002	(1.15880926723086e+002dB,3.30600315217757e+000°)
1.23879658653038e+002	(1.15861257958238e+002dB,3.30229280303923e+000°)
1.24022362511890e+002	(1.15841588430323e+002dB,3.29858627465752e+000°)
1.24165230759243e+002	(1.15821918148068e+002dB,3.29488356123372e+000°)
1.24308263584464e+002	(1.15802247103652e+002dB,3.29118466058108e+000°)
1.24451461177140e+002	(1.15782575310555e+002dB,3.28748957258149e+000°)
1.24594823727076e+002	(1.15762902759984e+002dB,3.28379829294206e+000°)
1.24738351424296e+002	(1.15743229459864e+002dB,3.28011081669522e+000°)
1.24882044459041e+002	(1.15723555413167e+002dB,3.27642713946290e+000°)
1.25025903021774e+002	(1.15703880614952e+002dB,3.27274726433421e+000°)
1.25169927303174e+002	(1.15684205067720e+002dB,3.26907118279113e+000°)
1.25314117494143e+002	(1.15664528779563e+002dB,3.26539889209366e+000°)
1.25458473785801e+002	(1.15644851744312e+002dB,3.26173039189283e+000°)
1.25602996369489e+002	(1.15625173975824e+002dB,3.25806567709181e+000°)
1.25747685436768e+002	(1.15605495462434e+002dB,3.25440474726610e+000°)
1.25892541179418e+002	(1.15585816206752e+002dB,3.25074759161411e+000°)
1.26037563789444e+002	(1.15566136217874e+002dB,3.24709421893461e+000°)
1.26182753459069e+002	(1.15546455495133e+002dB,3.24344461491697e+000°)
1.26328110380737e+002	(1.15526774038833e+002dB,3.23979878767198e+000°)
1.26473634747117e+002	(1.15507091848591e+002dB,3.23615672451736e+000°)
1.26619326751096e+002	(1.15487408927358e+002dB,3.23251842313704e+000°)
1.26765186585786e+002	(1.15467725284215e+002dB,3.22888388555678e+000°)
1.26911214444521e+002	(1.15448040903795e+002dB,3.22525310662308e+000°)
1.27057410520856e+002	(1.15428355801202e+002dB,3.22162608568968e+000°)
1.27203775008571e+002	(1.15408669977514e+002dB,3.21800281284317e+000°)
1.27350308101668e+002	(1.15388983430193e+002dB,3.21438329071866e+000°)
1.27497009994373e+002	(1.15369296160209e+002dB,3.21076751787367e+000°)
1.27643880881136e+002	(1.15349608174989e+002dB,3.20715548313815e+000°)
1.27790920956630e+002	(1.15329919466374e+002dB,3.20354719074764e+000°)
1.27938130415754e+002	(1.15310230050766e+002dB,3.19994263650414e+000°)
1.28085509453630e+002	(1.15290539906331e+002dB,3.19634181335730e+000°)
1.28233058265604e+002	(1.15270849063226e+002dB,3.19274472239385e+000°)
1.28380777047249e+002	(1.15251157496833e+002dB,3.18915135648731e+000°)
1.28528665994363e+002	(1.15231465223227e+002dB,3.18556171812428e+000°)
1.28676725302969e+002	(1.15211772242995e+002dB,3.18197580240307e+000°)
1.28824955169315e+002	(1.15192078558238e+002dB,3.17839359949555e+000°)
1.28973355789877e+002	(1.15172384165657e+002dB,3.17481511549950e+000°)
1.29121927361355e+002	(1.15152689075041e+002dB,3.17124034611958e+000°)
1.29270670080678e+002	(1.15132993273135e+002dB,3.16766928216531e+000°)
1.29419584145000e+002	(1.15113296773116e+002dB,3.16410192578459e+000°)
1.29568669751704e+002	(1.15093599569334e+002dB,3.16053827051208e+000°)
1.29717927098397e+002	(1.15073901675236e+002dB,3.15697831781904e+000°)
1.29867356382918e+002	(1.15054203087118e+002dB,3.15342206221567e+000°)
1.30016957803331e+002	(1.15034503798968e+002dB,3.14986949644336e+000°)
1.30166731557928e+002	(1.15014803813131e+002dB,3.14632062634641e+000°)
1.30316677845232e+002	(1.14995103141359e+002dB,3.14277544183556e+000°)
1.30466796863991e+002	(1.14975401781965e+002dB,3.13923394044192e+000°)
1.30617088813186e+002	(1.14955699728654e+002dB,3.13569612428316e+000°)
1.30767553892024e+002	(1.14935996987612e+002dB,3.13216198168001e+000°)
1.30918192299943e+002	(1.14916293561976e+002dB,3.12863151507149e+000°)
1.31069004236610e+002	(1.14896589462100e+002dB,3.12510472372120e+000°)
1.31219989901922e+002	(1.14876884667993e+002dB,3.12158159808975e+000°)
1.31371149496008e+002	(1.14857179193550e+002dB,3.11806214288805e+000°)
1.31522483219226e+002	(1.14837473034621e+002dB,3.11454634387947e+000°)
1.31673991272164e+002	(1.14817766210118e+002dB,3.11103421090281e+000°)
1.31825673855643e+002	(1.14798058699095e+002dB,3.10752573148797e+000°)
1.31977531170714e+002	(1.14778350514781e+002dB,3.10402090708625e+000°)
1.32129563418659e+002	(1.14758641657252e+002dB,3.10051973016374e+000°)
1.32281770800995e+002	(1.14738932129507e+002dB,3.09702220546902e+000°)
1.32434153519468e+002	(1.14719221929244e+002dB,3.09352832135971e+000°)
1.32586711776058e+002	(1.14699511057428e+002dB,3.09003808193072e+000°)
1.32739445772976e+002	(1.14679799522508e+002dB,3.08655147891278e+000°)
1.32892355712668e+002	(1.14660087312459e+002dB,3.08306850939964e+000°)
1.33045441797811e+002	(1.14640374443521e+002dB,3.07958917446198e+000°)
1.33198704231318e+002	(1.14620660913115e+002dB,3.07611346692901e+000°)
1.33352143216334e+002	(1.14600946716955e+002dB,3.07264138616340e+000°)
1.33505758956239e+002	(1.14581231857596e+002dB,3.06917292704634e+000°)
1.33659551654646e+002	(1.14561516339585e+002dB,3.06570808738872e+000°)
1.33813521515404e+002	(1.14541800165150e+002dB,3.06224686492043e+000°)
1.33967668742596e+002	(1.14522083334962e+002dB,3.05878925721199e+000°)
1.34121993540539e+002	(1.14502365845454e+002dB,3.05533525892998e+000°)
1.34276496113788e+002	(1.14482647702673e+002dB,3.05188486653798e+000°)
1.34431176667133e+002	(1.14462928913963e+002dB,3.04843808021302e+000°)
1.34586035405597e+002	(1.14443209468188e+002dB,3.04499489466033e+000°)
1.34741072534443e+002	(1.14423489375915e+002dB,3.04155530764792e+000°)
1.34896288259167e+002	(1.14403768635257e+002dB,3.03811931297842e+000°)
1.35051682785506e+002	(1.14384047247223e+002dB,3.03468691367368e+000°)
1.35207256319430e+002	(1.14364325214652e+002dB,3.03125810285505e+000°)
1.35363009067148e+002	(1.14344602538049e+002dB,3.02783287763776e+000°)
1.35518941235106e+002	(1.14324879218659e+002dB,3.02441123203692e+000°)
1.35675053029988e+002	(1.14305155257417e+002dB,3.02099316735773e+000°)
1.35831344658718e+002	(1.14285430658645e+002dB,3.01757868019110e+000°)
1.35987816328454e+002	(1.14265705420908e+002dB,3.01416776524741e+000°)
1.36144468246597e+002	(1.14245979548689e+002dB,3.01076042151116e+000°)
1.36301300620785e+002	(1.14226253036534e+002dB,3.00735664355962e+000°)
1.36458313658895e+002	(1.14206525890100e+002dB,3.00395643164956e+000°)
1.36615507569043e+002	(1.14186798107828e+002dB,3.00055977630626e+000°)
1.36772882559587e+002	(1.14167069699083e+002dB,2.99716668375186e+000°)
1.36930438839123e+002	(1.14147340661055e+002dB,2.99377714226117e+000°)
1.37088176616488e+002	(1.14127610990191e+002dB,2.99039115385584e+000°)
1.37246096100758e+002	(1.14107880697830e+002dB,2.98700871484403e+000°)
1.37404197501254e+002	(1.14088149775523e+002dB,2.98362982016642e+000°)
1.37562481027533e+002	(1.14068418230668e+002dB,2.98025447101073e+000°)
1.37720946889397e+002	(1.14048686063928e+002dB,2.97688265901177e+000°)
1.37879595296888e+002	(1.14028953271751e+002dB,2.97351438287584e+000°)
1.38038426460291e+002	(1.14009219856964e+002dB,2.97014963753614e+000°)
