Freq.	V(feedb)/V(inv)
1.00000000000000e+002	(1.18298902432469e+002dB,5.46985730970574e+000°)
1.00115195553817e+002	(1.18279303050852e+002dB,5.46374852009073e+000°)
1.00230523807790e+002	(1.18259702770877e+002dB,5.45764591311271e+000°)
1.00345984914784e+002	(1.18240101596564e+002dB,5.45154949230956e+000°)
1.00461579027840e+002	(1.18220499515495e+002dB,5.44545923960313e+000°)
1.00577306300174e+002	(1.18200896538643e+002dB,5.43937515025037e+000°)
1.00693166885180e+002	(1.18181292670330e+002dB,5.43329723170201e+000°)
1.00809160936430e+002	(1.18161687906661e+002dB,5.42722547286123e+000°)
1.00925288607668e+002	(1.18142082257576e+002dB,5.42115987049965e+000°)
1.01041550052821e+002	(1.18122475708794e+002dB,5.41510041285182e+000°)
1.01157945425990e+002	(1.18102868281539e+002dB,5.40904710876581e+000°)
1.01274474881453e+002	(1.18083259967680e+002dB,5.40299994074590e+000°)
1.01391138573668e+002	(1.18063650769280e+002dB,5.39695890967112e+000°)
1.01507936657269e+002	(1.18044040685638e+002dB,5.39092400727339e+000°)
1.01624869287070e+002	(1.18024429726455e+002dB,5.38489523708857e+000°)
1.01741936618061e+002	(1.18004817887212e+002dB,5.37887258706723e+000°)
1.01859138805412e+002	(1.17985205176808e+002dB,5.37285605808877e+000°)
1.01976476004472e+002	(1.17965591584047e+002dB,5.36684563623303e+000°)
1.02093948370768e+002	(1.17945977121326e+002dB,5.36084132840055e+000°)
1.02211556060007e+002	(1.17926361792759e+002dB,5.35484312407229e+000°)
1.02329299228076e+002	(1.17906745598099e+002dB,5.34885101908144e+000°)
1.02447178031038e+002	(1.17887128532281e+002dB,5.34286500793556e+000°)
1.02565192625141e+002	(1.17867510601076e+002dB,5.33688508702721e+000°)
1.02683343166809e+002	(1.17847891809790e+002dB,5.33091125295443e+000°)
1.02801629812648e+002	(1.17828272158896e+002dB,5.32494350021037e+000°)
1.02920052719443e+002	(1.17808651641175e+002dB,5.31898182255774e+000°)
1.03038612044162e+002	(1.17789030277694e+002dB,5.31302621892229e+000°)
1.03157307943951e+002	(1.17769408052153e+002dB,5.30707667924718e+000°)
1.03276140576140e+002	(1.17749784975438e+002dB,5.30113320250007e+000°)
1.03395110098237e+002	(1.17730161047933e+002dB,5.29519578633450e+000°)
1.03514216667935e+002	(1.17710536269686e+002dB,5.28926442117937e+000°)
1.03633460443104e+002	(1.17690910636328e+002dB,5.28333909939327e+000°)
1.03752841581801e+002	(1.17671284165267e+002dB,5.27741982752413e+000°)
1.03872360242262e+002	(1.17651656846464e+002dB,5.27150659135980e+000°)
1.03992016582906e+002	(1.17632028688961e+002dB,5.26559939290713e+000°)
1.04111810762334e+002	(1.17612399687471e+002dB,5.25969821967899e+000°)
1.04231742939331e+002	(1.17592769850223e+002dB,5.25380307526231e+000°)
1.04351813272863e+002	(1.17573139168535e+002dB,5.24791394563368e+000°)
1.04472021922080e+002	(1.17553507666479e+002dB,5.24203083981284e+000°)
1.04592369046317e+002	(1.17533875314577e+002dB,5.23615373734757e+000°)
1.04712854805090e+002	(1.17514242139872e+002dB,5.23028264621171e+000°)
1.04833479358100e+002	(1.17494608137527e+002dB,5.22441755493077e+000°)
1.04954242865233e+002	(1.17474973306110e+002dB,5.21855846296407e+000°)
1.05075145486555e+002	(1.17455337640413e+002dB,5.21270535889144e+000°)
1.05196187382323e+002	(1.17435701150553e+002dB,5.20685824080994e+000°)
1.05317368712972e+002	(1.17416063851014e+002dB,5.20101710986748e+000°)
1.05438689639126e+002	(1.17396425725898e+002dB,5.19518195957780e+000°)
1.05560150321593e+002	(1.17376786774506e+002dB,5.18935277782818e+000°)
1.05681750921366e+002	(1.17357147010681e+002dB,5.18352956568261e+000°)
1.05803491599623e+002	(1.17337506427153e+002dB,5.17771231565280e+000°)
1.05925372517729e+002	(1.17317865038409e+002dB,5.17190102757580e+000°)
1.06047393837234e+002	(1.17298222833303e+002dB,5.16609569670967e+000°)
1.06169555719873e+002	(1.17278579817437e+002dB,5.16029631253743e+000°)
1.06291858327569e+002	(1.17258935991708e+002dB,5.15450287025302e+000°)
1.06414301822432e+002	(1.17239291362667e+002dB,5.14871537472954e+000°)
1.06536886366757e+002	(1.17219645927129e+002dB,5.14293381264596e+000°)
1.06659612123026e+002	(1.17199999686478e+002dB,5.13715818016465e+000°)
1.06782479253910e+002	(1.17180352647817e+002dB,5.13138847517904e+000°)
1.06905487922266e+002	(1.17160704802926e+002dB,5.12562468836519e+000°)
1.07028638291139e+002	(1.17141056165080e+002dB,5.11986682142418e+000°)
1.07151930523761e+002	(1.17121406731109e+002dB,5.11411486787492e+000°)
1.07275364783553e+002	(1.17101756503275e+002dB,5.10836881899631e+000°)
1.07398941234125e+002	(1.17082105473217e+002dB,5.10262867272373e+000°)
1.07522660039273e+002	(1.17062453663832e+002dB,5.09689442862343e+000°)
1.07646521362984e+002	(1.17042801061750e+002dB,5.09116607519185e+000°)
1.07770525369433e+002	(1.17023147668721e+002dB,5.08544360973847e+000°)
1.07894672222983e+002	(1.17003493490959e+002dB,5.07972702660108e+000°)
1.08018962088190e+002	(1.16983838528603e+002dB,5.07401632373157e+000°)
1.08143395129794e+002	(1.16964182792103e+002dB,5.06831149960174e+000°)
1.08267971512730e+002	(1.16944526262530e+002dB,5.06261253727730e+000°)
1.08392691402121e+002	(1.16924868953942e+002dB,5.05691944495119e+000°)
1.08517554963279e+002	(1.16905210875950e+002dB,5.05123221277880e+000°)
1.08642562361707e+002	(1.16885552020000e+002dB,5.04555083430641e+000°)
1.08767713763100e+002	(1.16865892387268e+002dB,5.03987530564806e+000°)
1.08893009333344e+002	(1.16846231977412e+002dB,5.03420562311384e+000°)
1.09018449238513e+002	(1.16826570805307e+002dB,5.02854178389726e+000°)
1.09144033644876e+002	(1.16806908861561e+002dB,5.02288378043711e+000°)
1.09269762718892e+002	(1.16787246151675e+002dB,5.01723160767040e+000°)
1.09395636627210e+002	(1.16767582673922e+002dB,5.01158526391809e+000°)
1.09521655536674e+002	(1.16747918429531e+002dB,5.00594473926071e+000°)
1.09647819614319e+002	(1.16728253423892e+002dB,5.00031003174129e+000°)
1.09774129027372e+002	(1.16708587659555e+002dB,4.99468113941898e+000°)
1.09900583943253e+002	(1.16688921133726e+002dB,4.98905805141268e+000°)
1.10027184529574e+002	(1.16669253855625e+002dB,4.98344077379385e+000°)
1.10153930954142e+002	(1.16649585809773e+002dB,4.97782928428485e+000°)
1.10280823384956e+002	(1.16629917021187e+002dB,4.97222359888205e+000°)
1.10407861990208e+002	(1.16610247479423e+002dB,4.96662369846836e+000°)
1.10535046938285e+002	(1.16590577178758e+002dB,4.96102958019033e+000°)
1.10662378397767e+002	(1.16570906132942e+002dB,4.95544124139369e+000°)
1.10789856537430e+002	(1.16551234339729e+002dB,4.94985867850142e+000°)
1.10917481526241e+002	(1.16531561800184e+002dB,4.94428188573472e+000°)
1.11045253533365e+002	(1.16511888517600e+002dB,4.93871085576731e+000°)
1.11173172728160e+002	(1.16492214487376e+002dB,4.93314558915982e+000°)
1.11301239280180e+002	(1.16472539717935e+002dB,4.92758607695359e+000°)
1.11429453359174e+002	(1.16452864206971e+002dB,4.92203231508742e+000°)
1.11557815135086e+002	(1.16433187959048e+002dB,4.91648429939261e+000°)
1.11686324778057e+002	(1.16413510978220e+002dB,4.91094202435229e+000°)
1.11814982458423e+002	(1.16393833263999e+002dB,4.90540549058220e+000°)
1.11943788346716e+002	(1.16374154810668e+002dB,4.89987468250509e+000°)
1.12072742613665e+002	(1.16354475629734e+002dB,4.89434960787332e+000°)
1.12201845430197e+002	(1.16334795711428e+002dB,4.88883024582266e+000°)
1.12331096967433e+002	(1.16315115071392e+002dB,4.88331660912975e+000°)
1.12460497396693e+002	(1.16295433703769e+002dB,4.87780868402944e+000°)
1.12590046889495e+002	(1.16275751605910e+002dB,4.87230646273123e+000°)
1.12719745617552e+002	(1.16256068790805e+002dB,4.86680995016008e+000°)
1.12849593752777e+002	(1.16236385253045e+002dB,4.86131913600638e+000°)
1.12979591467281e+002	(1.16216700986851e+002dB,4.85583400728124e+000°)
1.13109738933371e+002	(1.16197016004903e+002dB,4.85035457456230e+000°)
1.13240036323557e+002	(1.16177330308326e+002dB,4.84488082352901e+000°)
1.13370483810542e+002	(1.16157643892005e+002dB,4.83941275241400e+000°)
1.13501081567232e+002	(1.16137956766569e+002dB,4.83395035762054e+000°)
1.13631829766732e+002	(1.16118268925834e+002dB,4.82849363089481e+000°)
1.13762728582344e+002	(1.16098580373108e+002dB,4.82304256848050e+000°)
1.13893778187572e+002	(1.16078891109567e+002dB,4.81759716652087e+000°)
1.14024978756118e+002	(1.16059201139927e+002dB,4.81215742279722e+000°)
1.14156330461885e+002	(1.16039510464595e+002dB,4.80672332803419e+000°)
1.14287833478978e+002	(1.16019819081799e+002dB,4.80129487827954e+000°)
1.14419487981699e+002	(1.16000126988977e+002dB,4.79587206737969e+000°)
1.14551294144554e+002	(1.15980434200448e+002dB,4.79045489683014e+000°)
1.14683252142249e+002	(1.15960740712537e+002dB,4.78504335304261e+000°)
1.14815362149689e+002	(1.15941046521325e+002dB,4.77963744048201e+000°)
1.14947624341984e+002	(1.15921351638629e+002dB,4.77423715007509e+000°)
1.15080038894444e+002	(1.15901656055637e+002dB,4.76884247450866e+000°)
1.15212605982582e+002	(1.15881959776705e+002dB,4.76345341351468e+000°)
1.15345325782110e+002	(1.15862262809130e+002dB,4.75806995886376e+000°)
1.15478198468947e+002	(1.15842565146258e+002dB,4.75269210417292e+000°)
1.15611224219211e+002	(1.15822866795486e+002dB,4.74731985407759e+000°)
1.15744403209225e+002	(1.15803167752283e+002dB,4.74195319263129e+000°)
1.15877735615514e+002	(1.15783468026280e+002dB,4.73659212024305e+000°)
1.16011221614806e+002	(1.15763767612584e+002dB,4.73123663104574e+000°)
1.16144861384035e+002	(1.15744066516558e+002dB,4.72588672342794e+000°)
1.16278655100336e+002	(1.15724364739028e+002dB,4.72054238836080e+000°)
1.16412602941050e+002	(1.15704662278742e+002dB,4.71520362511671e+000°)
1.16546705083721e+002	(1.15684959134518e+002dB,4.70987042059376e+000°)
1.16680961706097e+002	(1.15665255318265e+002dB,4.70454278371192e+000°)
1.16815372986133e+002	(1.15645550822833e+002dB,4.69922069918131e+000°)
1.16949939101988e+002	(1.15625845650449e+002dB,4.69390415930319e+000°)
1.17084660232025e+002	(1.15606139807612e+002dB,4.68859317355329e+000°)
1.17219536554814e+002	(1.15586433291559e+002dB,4.68328772333259e+000°)
1.17354568249130e+002	(1.15566726098305e+002dB,4.67798780526786e+000°)
1.17489755493954e+002	(1.15547018248290e+002dB,4.67269342711119e+000°)
1.17625098468473e+002	(1.15527309723177e+002dB,4.66740457244112e+000°)
1.17760597352082e+002	(1.15507600529968e+002dB,4.66212123569908e+000°)
1.17896252324380e+002	(1.15487890673559e+002dB,4.65684341910957e+000°)
1.18032063565174e+002	(1.15468180152922e+002dB,4.65157111332858e+000°)
1.18168031254479e+002	(1.15448468970586e+002dB,4.64630431445146e+000°)
1.18304155572518e+002	(1.15428757129616e+002dB,4.64104301960280e+000°)
1.18440436699718e+002	(1.15409044629696e+002dB,4.63578722268669e+000°)
1.18576874816717e+002	(1.15389331464799e+002dB,4.63053691664270e+000°)
1.18713470104361e+002	(1.15369617649287e+002dB,4.62529209821091e+000°)
1.18850222743703e+002	(1.15349903175843e+002dB,4.62005276698041e+000°)
1.18987132916005e+002	(1.15330188053776e+002dB,4.61481891078245e+000°)
1.19124200802739e+002	(1.15310472275711e+002dB,4.60959052885452e+000°)
1.19261426585583e+002	(1.15290755849150e+002dB,4.60436761657728e+000°)
1.19398810446429e+002	(1.15271038771171e+002dB,4.59915017031919e+000°)
1.19536352567373e+002	(1.15251321047617e+002dB,4.59393818183690e+000°)
1.19674053130726e+002	(1.15231602680539e+002dB,4.58873165115288e+000°)
1.19811912319005e+002	(1.15211883660998e+002dB,4.58353056623069e+000°)
1.19949930314939e+002	(1.15192164000974e+002dB,4.57833492627683e+000°)
1.20088107301468e+002	(1.15172443696558e+002dB,4.57314472559222e+000°)
1.20226443461743e+002	(1.15152722753935e+002dB,4.56795996430372e+000°)
1.20364938979123e+002	(1.15133001171812e+002dB,4.56278063383980e+000°)
1.20503594037181e+002	(1.15113278948011e+002dB,4.55760672704921e+000°)
1.20642408819701e+002	(1.15093556092878e+002dB,4.55243824376666e+000°)
1.20781383510679e+002	(1.15073832598340e+002dB,4.54727517411281e+000°)
1.20920518294322e+002	(1.15054108473927e+002dB,4.54211751911719e+000°)
1.21059813355050e+002	(1.15034383713729e+002dB,4.53696526763948e+000°)
1.21199268877494e+002	(1.15014658323357e+002dB,4.53181842268912e+000°)
1.21338885046499e+002	(1.14994932299185e+002dB,4.52667697043808e+000°)
1.21478662047124e+002	(1.14975205657240e+002dB,4.52154091561160e+000°)
1.21618600064638e+002	(1.14955478377801e+002dB,4.51641024344470e+000°)
1.21758699284527e+002	(1.14935750475765e+002dB,4.51128495446001e+000°)
1.21898959892488e+002	(1.14916021946086e+002dB,4.50616504538781e+000°)
1.22039382074433e+002	(1.14896292799953e+002dB,4.50105051142675e+000°)
1.22179966016489e+002	(1.14876563031050e+002dB,4.49594134771415e+000°)
1.22320711904995e+002	(1.14856832638731e+002dB,4.49083754301214e+000°)
1.22461619926506e+002	(1.14837101627327e+002dB,4.48573909916396e+000°)
1.22602690267794e+002	(1.14817369994785e+002dB,4.48064600918275e+000°)
1.22743923115842e+002	(1.14797637754740e+002dB,4.47555827258911e+000°)
1.22885318657852e+002	(1.14777904895347e+002dB,4.47047587867468e+000°)
1.23026877081240e+002	(1.14758171420043e+002dB,4.46539882298838e+000°)
1.23168598573637e+002	(1.14738437337295e+002dB,4.46032710539342e+000°)
1.23310483322892e+002	(1.14718702640452e+002dB,4.45526071491808e+000°)
1.23452531517070e+002	(1.14698967338342e+002dB,4.45019965370216e+000°)
1.23594743344452e+002	(1.14679231423061e+002dB,4.44514391088309e+000°)
1.23737118993537e+002	(1.14659494901697e+002dB,4.44009348628588e+000°)
1.23879658653038e+002	(1.14639757777671e+002dB,4.43504837351453e+000°)
1.24022362511890e+002	(1.14620020049006e+002dB,4.43000856800654e+000°)
1.24165230759243e+002	(1.14600281708524e+002dB,4.42497406037732e+000°)
1.24308263584464e+002	(1.14580542779513e+002dB,4.41994485594243e+000°)
1.24451461177140e+002	(1.14560803241045e+002dB,4.41492093571090e+000°)
1.24594823727076e+002	(1.14541063108151e+002dB,4.40990231090491e+000°)
1.24738351424296e+002	(1.14521322374474e+002dB,4.40488896700077e+000°)
1.24882044459041e+002	(1.14501581044468e+002dB,4.39988089976891e+000°)
1.25025903021774e+002	(1.14481839118699e+002dB,4.39487810559686e+000°)
1.25169927303174e+002	(1.14462096603823e+002dB,4.38988058295577e+000°)
1.25314117494143e+002	(1.14442353487491e+002dB,4.38488831900024e+000°)
1.25458473785801e+002	(1.14422609788102e+002dB,4.37990131807555e+000°)
1.25602996369489e+002	(1.14402865498234e+002dB,4.37491957038971e+000°)
1.25747685436768e+002	(1.14383120612399e+002dB,4.36994307297187e+000°)
1.25892541179418e+002	(1.14363375150652e+002dB,4.36497182165297e+000°)
1.26037563789444e+002	(1.14343629093446e+002dB,4.36000581006761e+000°)
1.26182753459069e+002	(1.14323882454500e+002dB,4.35504503094679e+000°)
1.26328110380737e+002	(1.14304135234245e+002dB,4.35008948542164e+000°)
1.26473634747117e+002	(1.14284387424220e+002dB,4.34513916365701e+000°)
1.26619326751096e+002	(1.14264639037831e+002dB,4.34019406336139e+000°)
1.26765186585786e+002	(1.14244890073569e+002dB,4.33525418283187e+000°)
1.26911214444521e+002	(1.14225140526957e+002dB,4.33031950823449e+000°)
1.27057410520856e+002	(1.14205390403462e+002dB,4.32539004306683e+000°)
1.27203775008571e+002	(1.14185639702863e+002dB,4.32046577937593e+000°)
1.27350308101668e+002	(1.14165888428895e+002dB,4.31554671343135e+000°)
1.27497009994373e+002	(1.14146136581829e+002dB,4.31063284129786e+000°)
1.27643880881136e+002	(1.14126384166380e+002dB,4.30572415652376e+000°)
1.27790920956630e+002	(1.14106631175331e+002dB,4.30082065545752e+000°)
1.27938130415754e+002	(1.14086877614593e+002dB,4.29592233243382e+000°)
1.28085509453630e+002	(1.14067123484759e+002dB,4.29102918438305e+000°)
1.28233058265604e+002	(1.14047368787811e+002dB,4.28614120244893e+000°)
1.28380777047249e+002	(1.14027613524066e+002dB,4.28125838544952e+000°)
1.28528665994363e+002	(1.14007857700086e+002dB,4.27638073002051e+000°)
1.28676725302969e+002	(1.13988101308313e+002dB,4.27150822846009e+000°)
1.28824955169315e+002	(1.13968344355293e+002dB,4.26664087510889e+000°)
1.28973355789877e+002	(1.13948586842536e+002dB,4.26177867025738e+000°)
1.29121927361355e+002	(1.13928828763559e+002dB,4.25692160180168e+000°)
1.29270670080678e+002	(1.13909070131241e+002dB,4.25206967194141e+000°)
1.29419584145000e+002	(1.13889310938067e+002dB,4.24722287181007e+000°)
1.29568669751704e+002	(1.13869551194699e+002dB,4.24238119836677e+000°)
1.29717927098397e+002	(1.13849790889918e+002dB,4.23754464577083e+000°)
1.29867356382918e+002	(1.13830030033291e+002dB,4.23271321184595e+000°)
1.30016957803331e+002	(1.13810268624915e+002dB,4.22788688868038e+000°)
1.30166731557928e+002	(1.13790506665400e+002dB,4.22306567535474e+000°)
1.30316677845232e+002	(1.13770744150632e+002dB,4.21824956057388e+000°)
1.30466796863991e+002	(1.13750981094509e+002dB,4.21343854802027e+000°)
1.30617088813186e+002	(1.13731217486585e+002dB,4.20863262768282e+000°)
1.30767553892024e+002	(1.13711453329444e+002dB,4.20383179478832e+000°)
1.30918192299943e+002	(1.13691688631457e+002dB,4.19903604926302e+000°)
1.31069004236610e+002	(1.13671923383294e+002dB,4.19424537636957e+000°)
1.31219989901922e+002	(1.13652157597641e+002dB,4.18945978488878e+000°)
1.31371149496008e+002	(1.13632391267081e+002dB,4.18467925783310e+000°)
1.31522483219226e+002	(1.13612624399122e+002dB,4.17990379791034e+000°)
1.31673991272164e+002	(1.13592856982414e+002dB,4.17513339554738e+000°)
1.31825673855643e+002	(1.13573089035147e+002dB,4.17036805343403e+000°)
1.31977531170714e+002	(1.13553320547333e+002dB,4.16560775824732e+000°)
1.32129563418659e+002	(1.13533551523697e+002dB,4.16085251248938e+000°)
1.32281770800995e+002	(1.13513781967217e+002dB,4.15610230693810e+000°)
1.32434153519468e+002	(1.13494011873137e+002dB,4.15135713742980e+000°)
1.32586711776058e+002	(1.13474241248773e+002dB,4.14661699945696e+000°)
1.32739445772976e+002	(1.13454470093000e+002dB,4.14188189035310e+000°)
1.32892355712668e+002	(1.13434698406630e+002dB,4.13715180353166e+000°)
1.33045441797811e+002	(1.13414926190905e+002dB,4.13242673494994e+000°)
1.33198704231318e+002	(1.13395153445844e+002dB,4.12770667876486e+000°)
1.33352143216334e+002	(1.13375380175612e+002dB,4.12299163258897e+000°)
1.33505758956239e+002	(1.13355606378029e+002dB,4.11828158835031e+000°)
1.33659551654646e+002	(1.13335832060450e+002dB,4.11357654580802e+000°)
1.33813521515404e+002	(1.13316057215046e+002dB,4.10887649680753e+000°)
1.33967668742596e+002	(1.13296281849145e+002dB,4.10418143677495e+000°)
1.34121993540539e+002	(1.13276505957699e+002dB,4.09949135911107e+000°)
1.34276496113788e+002	(1.13256729552702e+002dB,4.09480626828339e+000°)
1.34431176667133e+002	(1.13236952623624e+002dB,4.09012614991956e+000°)
1.34586035405597e+002	(1.13217175177521e+002dB,4.08545100099758e+000°)
1.34741072534443e+002	(1.13197397216481e+002dB,4.08078082074191e+000°)
1.34896288259167e+002	(1.13177618736314e+002dB,4.07611560276825e+000°)
1.35051682785506e+002	(1.13157839746123e+002dB,4.07145533951492e+000°)
1.35207256319430e+002	(1.13138060242040e+002dB,4.06680003231471e+000°)
1.35363009067148e+002	(1.13118280226779e+002dB,4.06214966988526e+000°)
1.35518941235106e+002	(1.13098499693638e+002dB,4.05750425008295e+000°)
1.35675053029988e+002	(1.13078718652539e+002dB,4.05286376722097e+000°)
1.35831344658718e+002	(1.13058937107895e+002dB,4.04822822058508e+000°)
1.35987816328454e+002	(1.13039155049840e+002dB,4.04359760239368e+000°)
1.36144468246597e+002	(1.13019372489765e+002dB,4.03897190966311e+000°)
1.36301300620785e+002	(1.12999589420349e+002dB,4.03435113412682e+000°)
1.36458313658895e+002	(1.12979805848582e+002dB,4.02973527598005e+000°)
1.36615507569043e+002	(1.12960021773068e+002dB,4.02512432857203e+000°)
1.36772882559587e+002	(1.12940237195125e+002dB,4.02051828636609e+000°)
1.36930438839123e+002	(1.12920452114015e+002dB,4.01591714459198e+000°)
1.37088176616488e+002	(1.12900666538182e+002dB,4.01132090098478e+000°)
1.37246096100758e+002	(1.12880880462380e+002dB,4.00672954917626e+000°)
1.37404197501254e+002	(1.12861093881792e+002dB,4.00214307981219e+000°)
1.37562481027533e+002	(1.12841306805800e+002dB,3.99756149462554e+000°)
1.37720946889397e+002	(1.12821519238831e+002dB,3.99298478972424e+000°)
1.37879595296888e+002	(1.12801731174207e+002dB,3.98841295658801e+000°)
1.38038426460291e+002	(1.12781942615396e+002dB,3.98384599161476e+000°)
